T2DE0 4405:789 SEGGER J-Link V6.44a Log File (0001ms, 1418ms total)
T2DE0 4405:789 DLL Compiled: Mar  8 2019 17:31:48 (0001ms, 1418ms total)
T2DE0 4405:789 Logging started @ 2019-08-03 09:14 (0001ms, 1418ms total)
T2DE0 4405:790 JLINK_SetWarnOutHandler(...) (0000ms, 1418ms total)
T2DE0 4405:790 JLINK_OpenEx(...)
Firmware: J-Link ARM V8 compiled Nov 28 2014 13:44:46
Hardware: V8.00
S/N: 17935099
Feature(s): RDI,FlashDL,FlashBP,JFlash
TELNET listener socket opened on port 19021WEBSRV 
Starting webserver (0024ms, 1442ms total)
T2DE0 4405:790 WEBSRV Webserver running on local port 19080 (0024ms, 1442ms total)
T2DE0 4405:790   returns O.K. (0024ms, 1442ms total)
T2DE0 4405:814 JLINK_GetEmuCaps()  returns 0xB9FF7BBF (0000ms, 1442ms total)
T2DE0 4405:815 JLINK_TIF_GetAvailable(...) (0001ms, 1443ms total)
T2DE0 4405:816 JLINK_SetErrorOutHandler(...) (0000ms, 1443ms total)
T2DE0 4405:816 JLINK_ExecCommand("ProjectFile = "C:\Users\ngoqu\Documents\GitHub\stm32c8t6SPI\JLinkSettings.ini"", ...).   returns 0x00 (0002ms, 1445ms total)
T2DE0 4405:827 JLINK_ExecCommand("Device = STM32F103C8", ...). Device "STM32F103C8" selected.  returns 0x00 (0002ms, 1447ms total)
T2DE0 4405:829 JLINK_ExecCommand("DisableConnectionTimeout", ...).   returns 0x01 (0000ms, 1447ms total)
T2DE0 4405:829 JLINK_GetHardwareVersion()  returns 0x13880 (0000ms, 1447ms total)
T2DE0 4405:829 JLINK_GetDLLVersion()  returns 64401 (0000ms, 1447ms total)
T2DE0 4405:829 JLINK_GetFirmwareString(...) (0000ms, 1447ms total)
T2DE0 4405:831 JLINK_GetDLLVersion()  returns 64401 (0000ms, 1447ms total)
T2DE0 4405:831 JLINK_GetCompileDateTime() (0000ms, 1447ms total)
T2DE0 4405:834 JLINK_GetFirmwareString(...) (0000ms, 1447ms total)
T2DE0 4405:835 JLINK_GetHardwareVersion()  returns 0x13880 (0000ms, 1447ms total)
T2DE0 4405:840 JLINK_TIF_Select(JLINKARM_TIF_SWD)  returns 0x00 (0005ms, 1452ms total)
T2DE0 4405:845 JLINK_SetSpeed(5000) (0001ms, 1453ms total)
T2DE0 4405:846 JLINK_GetId() >0x10B TIF>Found SW-DP with ID 0x1BA01477 >0x0D TIF> >0x28 TIF> >0x0D TIF> >0x28 TIF> >0x0D TIF> >0x28 TIF> >0x0D TIF> >0x28 TIF> >0x0D TIF> >0x21 TIF> >0x0D TIF> >0x28 TIF> >0x0D TIF> >0x28 TIF> >0x0D TIF> >0x28 TIF> >0x0D TIF> >0x21 TIF> >0x0D TIF> >0x21 TIF> >0x0D TIF> >0x28 TIF> >0x0D TIF> >0x21 TIF> >0x0D TIF> >0x21 TIF> >0x0D TIF> >0x28 TIF> >0x0D TIF> >0x21 TIF> >0x0D TIF> >0x21 TIF> >0x0D TIF> >0x28 TIF> >0x0D TIF> >0x21 TIF> >0x0D TIF> >0x21 TIF> >0x0D TIF>
 >0x28 TIF> >0x0D TIF> >0x21 TIF> >0x0D TIF> >0x21 TIF> >0x0D TIF> >0x28 TIF> >0x0D TIF> >0x21 TIF> >0x0D TIF> >0x21 TIF> >0x0D TIF> >0x28 TIF> >0x0D TIF> >0x21 TIF> >0x0D TIF> >0x21 TIF> >0x10B TIF>Found SW-DP with ID 0x1BA01477 >0x0D TIF> >0x28 TIF> >0x0D TIF> >0x28 TIF> >0x0D TIF> >0x28 TIF> >0x0D TIF> >0x28 TIF> >0x0D TIF> >0x21 TIF> >0x0D TIF> >0x28 TIF>Scanning AP map to find all available APs >0x0D TIF> >0x28 TIF> >0x0D TIF> >0x21 TIF> >0x0D TIF> >0x21 TIF> >0x0D TIF> >0x28 TIF> >0x0D TIF>
 >0x21 TIF> >0x0D TIF> >0x21 TIF>AP[1]: Stopped AP scan as end of AP map has been reachedAP[0]: AHB-AP (IDR: 0x14770011)Iterating through AP map to find AHB-AP to use >0x42 TIF> >0x28 TIF> >0x0D TIF> >0x28 TIF> >0x0D TIF> >0x21 TIF> >0x0D TIF> >0x21 TIF> >0x42 TIF> >0x28 TIF> >0x0D TIF> >0x28 TIF> >0x0D TIF> >0x28 TIF> >0x0D TIF> >0x21 TIF> >0x0D TIF> >0x21 TIF>AP[0]: Core foundAP[0]: AHB-AP ROM base: 0xE00FF000 >0x0D TIF> >0x28 TIF> >0x0D TIF> >0x28 TIF> >0x0D TIF> >0x28 TIF> >0x0D TIF> >0x21 TIF>
 >0x0D TIF> >0x21 TIF>CPUID register: 0x411FC231. Implementer code: 0x41 (ARM)Found Cortex-M3 r1p1, Little endian. -- Max. mem block: 0x00002408 -- CPU_ReadMem(4 bytes @ 0xE000EDF0) -- CPU_WriteMem(4 bytes @ 0xE000EDF0) -- CPU_ReadMem(4 bytes @ 0xE0002000)FPUnit: 6 code (BP) slots and 2 literal slots -- CPU_ReadMem(4 bytes @ 0xE000EDFC) -- CPU_WriteMem(4 bytes @ 0xE000EDFC) -- CPU_ReadMem(4 bytes @ 0xE0001000) -- CPU_WriteMem(4 bytes @ 0xE0001000) -- CPU_ReadMem(4 bytes @ 0xE000ED88)
 -- CPU_WriteMem(4 bytes @ 0xE000ED88) -- CPU_ReadMem(4 bytes @ 0xE000ED88) -- CPU_WriteMem(4 bytes @ 0xE000ED88)CoreSight components:ROMTbl[0] @ E00FF000 -- CPU_ReadMem(16 bytes @ 0xE00FF000) -- CPU_ReadMem(16 bytes @ 0xE000EFF0) -- CPU_ReadMem(16 bytes @ 0xE000EFE0)ROMTbl[0][0]: E000E000, CID: B105E00D, PID: 001BB000 SCS -- CPU_ReadMem(16 bytes @ 0xE0001FF0) -- CPU_ReadMem(16 bytes @ 0xE0001FE0)ROMTbl[0][1]: E0001000, CID: B105E00D, PID: 001BB002 DWT -- CPU_ReadMem(16 bytes @ 0xE0002FF0)
 -- CPU_ReadMem(16 bytes @ 0xE0002FE0)ROMTbl[0][2]: E0002000, CID: B105E00D, PID: 000BB003 FPB -- CPU_ReadMem(16 bytes @ 0xE0000FF0) -- CPU_ReadMem(16 bytes @ 0xE0000FE0)ROMTbl[0][3]: E0000000, CID: B105E00D, PID: 001BB001 ITM -- CPU_ReadMem(16 bytes @ 0xE00FF010) -- CPU_ReadMem(16 bytes @ 0xE0040FF0) -- CPU_ReadMem(16 bytes @ 0xE0040FE0)ROMTbl[0][4]: E0040000, CID: B105900D, PID: 001BB923 TPIU-Lite >0x0D TIF> >0x21 TIF>  returns 0x1BA01477 (0333ms, 1786ms total)
T2DE0 4406:179 JLINK_GetDLLVersion()  returns 64401 (0000ms, 1786ms total)
T2DE0 4406:179 JLINK_CORE_GetFound()  returns 0x30000FF (0000ms, 1786ms total)
T2DE0 4406:179 JLINK_GetDebugInfo(0x100 = JLINKARM_ROM_TABLE_ADDR_INDEX) -- Value=0xE00FF000  returns 0x00 (0000ms, 1786ms total)
T2DE0 4406:179 JLINK_GetDebugInfo(0x100 = JLINKARM_ROM_TABLE_ADDR_INDEX) -- Value=0xE00FF000  returns 0x00 (0000ms, 1786ms total)
T2DE0 4406:179 JLINK_GetDebugInfo(0x101 = JLINKARM_DEBUG_INFO_ETM_ADDR_INDEX) -- Value=0x00000000  returns 0x00 (0000ms, 1786ms total)
T2DE0 4406:179 JLINK_ReadMemEx(0xE0041FF0, 0x0010 Bytes, ..., Flags = 0x02000004) -- CPU_ReadMem(16 bytes @ 0xE0041FF0) - Data: 00 00 00 00 00 00 00 00 00 00 00 00 00 00 00 00  returns 0x10 (0002ms, 1788ms total)
T2DE0 4406:181 JLINK_GetDebugInfo(0x102 = JLINKARM_DEBUG_INFO_MTB_ADDR_INDEX) -- Value=0x00000000  returns 0x00 (0000ms, 1788ms total)
T2DE0 4406:181 JLINK_GetDebugInfo(0x103 = JLINKARM_DEBUG_INFO_TPIU_ADDR_INDEX) -- Value=0xE0040000  returns 0x00 (0000ms, 1788ms total)
T2DE0 4406:181 JLINK_GetDebugInfo(0x104 = JLINKARM_DEBUG_INFO_ITM_ADDR_INDEX) -- Value=0xE0000000  returns 0x00 (0000ms, 1788ms total)
T2DE0 4406:181 JLINK_GetDebugInfo(0x105 = JLINKARM_DEBUG_INFO_DWT_ADDR_INDEX) -- Value=0xE0001000  returns 0x00 (0000ms, 1788ms total)
T2DE0 4406:181 JLINK_GetDebugInfo(0x106 = JLINKARM_DEBUG_INFO_FPB_ADDR_INDEX) -- Value=0xE0002000  returns 0x00 (0000ms, 1788ms total)
T2DE0 4406:181 JLINK_GetDebugInfo(0x107 = JLINKARM_DEBUG_INFO_NVIC_ADDR_INDEX) -- Value=0xE000E000  returns 0x00 (0000ms, 1788ms total)
T2DE0 4406:181 JLINK_GetDebugInfo(0x10C = JLINKARM_DEBUG_INFO_DBG_ADDR_INDEX) -- Value=0xE000EDF0  returns 0x00 (0000ms, 1788ms total)
T2DE0 4406:181 JLINK_GetDebugInfo(0x01 = Unknown) -- Value=0x00000000  returns 0x00 (0000ms, 1788ms total)
T2DE0 4406:181 JLINK_ReadMemU32(0xE000ED00, 0x0001 Items, ...) -- CPU_ReadMem(4 bytes @ 0xE000ED00) - Data: 31 C2 1F 41  returns 1 (0001ms, 1789ms total)
T2DE0 4406:182 JLINK_GetDebugInfo(0x10F = JLINKARM_DEBUG_INFO_HAS_CORTEX_M_SECURITY_EXT_INDEX) -- Value=0x00000000  returns 0x00 (0000ms, 1789ms total)
T2DE0 4406:182 JLINK_SetResetType(JLINKARM_CM3_RESET_TYPE_NORMAL)  returns JLINKARM_CM3_RESET_TYPE_NORMAL (0000ms, 1789ms total)
T2DE0 4406:182 JLINK_Reset() -- CPU is running -- CPU_WriteMem(4 bytes @ 0xE000EDF0) -- CPU is running -- CPU_WriteMem(4 bytes @ 0xE000EDFC)Reset: Halt core after reset via DEMCR.VC_CORERESET. >0x35 TIF>Reset: Reset device via AIRCR.SYSRESETREQ. -- CPU is running -- CPU_WriteMem(4 bytes @ 0xE000ED0C) >0x0D TIF> >0x28 TIF> -- CPU_ReadMem(4 bytes @ 0xE000EDF0) -- CPU_ReadMem(4 bytes @ 0xE000EDF0) -- CPU is running -- CPU_WriteMem(4 bytes @ 0xE000EDF0) -- CPU is running -- CPU_WriteMem(4 bytes @ 0xE000EDFC)
 -- CPU_ReadMem(4 bytes @ 0xE000EDF0) -- CPU_WriteMem(4 bytes @ 0xE0002000) -- CPU_ReadMem(4 bytes @ 0xE000EDFC) -- CPU_ReadMem(4 bytes @ 0xE0001000) (0084ms, 1873ms total)
T2DE0 4406:266 JLINK_Halt()  returns 0x00 (0000ms, 1873ms total)
T2DE0 4406:266 JLINK_ReadMemU32(0xE000EDF0, 0x0001 Items, ...) -- CPU_ReadMem(4 bytes @ 0xE000EDF0) - Data: 03 00 03 00  returns 1 (0002ms, 1875ms total)
T2DE0 4406:268 JLINK_WriteU32(0xE000EDF0, 0xA05F0003) -- CPU_WriteMem(4 bytes @ 0xE000EDF0)  returns 0 (0001ms, 1876ms total)
T2DE0 4406:269 JLINK_WriteU32(0xE000EDFC, 0x01000000) -- CPU_WriteMem(4 bytes @ 0xE000EDFC)  returns 0 (0002ms, 1878ms total)
T2DE0 4406:275 JLINK_GetHWStatus(...)  returns 0x00 (0001ms, 1879ms total)
T2DE0 4406:277 JLINK_GetNumBPUnits(Type = 0xFFFFFF00)  returns 0x06 (0000ms, 1879ms total)
T2DE0 4406:277 JLINK_GetNumBPUnits(Type = 0xF0)  returns 0x2000 (0000ms, 1879ms total)
T2DE0 4406:277 JLINK_GetNumWPUnits()  returns 0x04 (0000ms, 1879ms total)
T2DE0 4406:279 JLINK_GetSpeed()  returns 0xFA0 (0000ms, 1879ms total)
T2DE0 4406:280 JLINK_ReadMemU32(0xE000E004, 0x0001 Items, ...) -- CPU_ReadMem(4 bytes @ 0xE000E004) - Data: 01 00 00 00  returns 1 (0001ms, 1880ms total)
T2DE0 4406:281 JLINK_ReadMemU32(0xE000E004, 0x0001 Items, ...) -- CPU_ReadMem(4 bytes @ 0xE000E004) - Data: 01 00 00 00  returns 1 (0001ms, 1881ms total)
T2DE0 4406:282 JLINK_WriteMemEx(0xE0001000, 0x001C Bytes, ..., Flags = 0x02000004) - Data: 01 00 00 00 00 00 00 00 00 00 00 00 00 00 00 00 ... -- CPU_WriteMem(28 bytes @ 0xE0001000)  returns 0x1C (0003ms, 1884ms total)
T2DE0 4406:285 JLINK_Halt()  returns 0x00 (0000ms, 1884ms total)
T2DE0 4406:285 JLINK_IsHalted()  returns TRUE (0000ms, 1884ms total)
T2DE0 4406:287 JLINK_WriteMem(0x20000000, 0x0164 Bytes, ...) - Data: 00 BE 0A E0 0D 78 2D 06 68 40 08 24 40 00 00 D3 ... -- CPU_WriteMem(356 bytes @ 0x20000000)  returns 0x164 (0004ms, 1888ms total)
T2DE0 4406:291 JLINK_WriteReg(R0, 0x08000000)  returns 0x00 (0000ms, 1888ms total)
T2DE0 4406:291 JLINK_WriteReg(R1, 0x00B71B00)  returns 0x00 (0000ms, 1888ms total)
T2DE0 4406:291 JLINK_WriteReg(R2, 0x00000001)  returns 0x00 (0000ms, 1888ms total)
T2DE0 4406:291 JLINK_WriteReg(R3, 0x00000000)  returns 0x00 (0000ms, 1888ms total)
T2DE0 4406:291 JLINK_WriteReg(R4, 0x00000000)  returns 0x00 (0000ms, 1888ms total)
T2DE0 4406:291 JLINK_WriteReg(R5, 0x00000000)  returns 0x00 (0000ms, 1888ms total)
T2DE0 4406:291 JLINK_WriteReg(R6, 0x00000000)  returns 0x00 (0000ms, 1888ms total)
T2DE0 4406:291 JLINK_WriteReg(R7, 0x00000000)  returns 0x00 (0000ms, 1888ms total)
T2DE0 4406:291 JLINK_WriteReg(R8, 0x00000000)  returns 0x00 (0000ms, 1888ms total)
T2DE0 4406:291 JLINK_WriteReg(R9, 0x20000160)  returns 0x00 (0000ms, 1888ms total)
T2DE0 4406:291 JLINK_WriteReg(R10, 0x00000000)  returns 0x00 (0000ms, 1888ms total)
T2DE0 4406:291 JLINK_WriteReg(R11, 0x00000000)  returns 0x00 (0000ms, 1888ms total)
T2DE0 4406:291 JLINK_WriteReg(R12, 0x00000000)  returns 0x00 (0000ms, 1888ms total)
T2DE0 4406:291 JLINK_WriteReg(R13 (SP), 0x20001000)  returns 0x00 (0000ms, 1888ms total)
T2DE0 4406:291 JLINK_WriteReg(R14, 0x20000001)  returns 0x00 (0000ms, 1888ms total)
T2DE0 4406:291 JLINK_WriteReg(R15 (PC), 0x20000038)  returns 0x00 (0000ms, 1888ms total)
T2DE0 4406:291 JLINK_WriteReg(XPSR, 0x01000000)  returns 0x00 (0000ms, 1888ms total)
T2DE0 4406:291 JLINK_WriteReg(MSP, 0x20001000)  returns 0x00 (0000ms, 1888ms total)
T2DE0 4406:291 JLINK_WriteReg(PSP, 0x20001000)  returns 0x00 (0000ms, 1888ms total)
T2DE0 4406:291 JLINK_WriteReg(CFBP, 0x00000000)  returns 0x00 (0000ms, 1888ms total)
T2DE0 4406:291 JLINK_SetBPEx(Addr = 0x20000000, Type = 0xFFFFFFF2) -- CPU_ReadMem(2 bytes @ 0x20000000)  returns 0x00000001 (0001ms, 1889ms total)
T2DE0 4406:292 JLINK_Go() -- CPU_WriteMem(2 bytes @ 0x20000000) -- CPU_ReadMem(4 bytes @ 0xE0001000) -- CPU_WriteMem(4 bytes @ 0xE0002008) -- CPU_WriteMem(4 bytes @ 0xE000200C) -- CPU_WriteMem(4 bytes @ 0xE0002010) -- CPU_WriteMem(4 bytes @ 0xE0002014) -- CPU_WriteMem(4 bytes @ 0xE0002018) -- CPU_WriteMem(4 bytes @ 0xE000201C) -- CPU_WriteMem(4 bytes @ 0xE0001004) (0010ms, 1899ms total)
T2DE0 4406:302 JLINK_IsHalted() -- CPU_ReadMem(2 bytes @ 0x20000000)  returns TRUE (0007ms, 1906ms total)
T2DE0 4406:309 JLINK_ReadReg(R15 (PC))  returns 0x20000000 (0000ms, 1899ms total)
T2DE0 4406:309 JLINK_ClrBPEx(BPHandle = 0x00000001)  returns 0x00 (0000ms, 1899ms total)
T2DE0 4406:309 JLINK_ReadReg(R0)  returns 0x00000000 (0000ms, 1899ms total)
T2DE0 4406:309 JLINK_WriteReg(R0, 0x08000000)  returns 0x00 (0000ms, 1899ms total)
T2DE0 4406:309 JLINK_WriteReg(R1, 0x00B71B00)  returns 0x00 (0000ms, 1899ms total)
T2DE0 4406:309 JLINK_WriteReg(R2, 0x00000001)  returns 0x00 (0000ms, 1899ms total)
T2DE0 4406:309 JLINK_WriteReg(R3, 0x00000000)  returns 0x00 (0000ms, 1899ms total)
T2DE0 4406:309 JLINK_WriteReg(R4, 0x00000000)  returns 0x00 (0000ms, 1899ms total)
T2DE0 4406:309 JLINK_WriteReg(R5, 0x00000000)  returns 0x00 (0000ms, 1899ms total)
T2DE0 4406:309 JLINK_WriteReg(R6, 0x00000000)  returns 0x00 (0000ms, 1899ms total)
T2DE0 4406:309 JLINK_WriteReg(R7, 0x00000000)  returns 0x00 (0000ms, 1899ms total)
T2DE0 4406:309 JLINK_WriteReg(R8, 0x00000000)  returns 0x00 (0000ms, 1899ms total)
T2DE0 4406:309 JLINK_WriteReg(R9, 0x20000160)  returns 0x00 (0000ms, 1899ms total)
T2DE0 4406:309 JLINK_WriteReg(R10, 0x00000000)  returns 0x00 (0000ms, 1899ms total)
T2DE0 4406:309 JLINK_WriteReg(R11, 0x00000000)  returns 0x00 (0000ms, 1899ms total)
T2DE0 4406:309 JLINK_WriteReg(R12, 0x00000000)  returns 0x00 (0000ms, 1899ms total)
T2DE0 4406:309 JLINK_WriteReg(R13 (SP), 0x20001000)  returns 0x00 (0000ms, 1899ms total)
T2DE0 4406:309 JLINK_WriteReg(R14, 0x20000001)  returns 0x00 (0000ms, 1899ms total)
T2DE0 4406:309 JLINK_WriteReg(R15 (PC), 0x2000007C)  returns 0x00 (0000ms, 1899ms total)
T2DE0 4406:309 JLINK_WriteReg(XPSR, 0x01000000)  returns 0x00 (0000ms, 1899ms total)
T2DE0 4406:309 JLINK_WriteReg(MSP, 0x20001000)  returns 0x00 (0000ms, 1899ms total)
T2DE0 4406:309 JLINK_WriteReg(PSP, 0x20001000)  returns 0x00 (0000ms, 1899ms total)
T2DE0 4406:309 JLINK_WriteReg(CFBP, 0x00000000)  returns 0x00 (0000ms, 1899ms total)
T2DE0 4406:309 JLINK_SetBPEx(Addr = 0x20000000, Type = 0xFFFFFFF2)  returns 0x00000002 (0000ms, 1899ms total)
T2DE0 4406:309 JLINK_Go() -- CPU_ReadMem(4 bytes @ 0xE0001000) (0007ms, 1906ms total)
T2DE0 4406:316 JLINK_IsHalted()  returns FALSE (0001ms, 1907ms total)
T2DE0 4406:387 JLINK_IsHalted() -- CPU_ReadMem(2 bytes @ 0x20000000)  returns TRUE (0005ms, 1911ms total)
T2DE0 4406:392 JLINK_ReadReg(R15 (PC))  returns 0x20000000 (0000ms, 1906ms total)
T2DE0 4406:392 JLINK_ClrBPEx(BPHandle = 0x00000002)  returns 0x00 (0000ms, 1906ms total)
T2DE0 4406:392 JLINK_ReadReg(R0)  returns 0x00000000 (0000ms, 1906ms total)
T2DE0 4406:444 JLINK_WriteReg(R0, 0x00000001)  returns 0x00 (0000ms, 1906ms total)
T2DE0 4406:444 JLINK_WriteReg(R1, 0x00B71B00)  returns 0x00 (0000ms, 1906ms total)
T2DE0 4406:444 JLINK_WriteReg(R2, 0x00000001)  returns 0x00 (0000ms, 1906ms total)
T2DE0 4406:444 JLINK_WriteReg(R3, 0x00000000)  returns 0x00 (0000ms, 1906ms total)
T2DE0 4406:444 JLINK_WriteReg(R4, 0x00000000)  returns 0x00 (0000ms, 1906ms total)
T2DE0 4406:444 JLINK_WriteReg(R5, 0x00000000)  returns 0x00 (0000ms, 1906ms total)
T2DE0 4406:444 JLINK_WriteReg(R6, 0x00000000)  returns 0x00 (0000ms, 1906ms total)
T2DE0 4406:444 JLINK_WriteReg(R7, 0x00000000)  returns 0x00 (0000ms, 1906ms total)
T2DE0 4406:444 JLINK_WriteReg(R8, 0x00000000)  returns 0x00 (0000ms, 1906ms total)
T2DE0 4406:444 JLINK_WriteReg(R9, 0x20000160)  returns 0x00 (0000ms, 1906ms total)
T2DE0 4406:444 JLINK_WriteReg(R10, 0x00000000)  returns 0x00 (0000ms, 1906ms total)
T2DE0 4406:444 JLINK_WriteReg(R11, 0x00000000)  returns 0x00 (0000ms, 1906ms total)
T2DE0 4406:444 JLINK_WriteReg(R12, 0x00000000)  returns 0x00 (0000ms, 1906ms total)
T2DE0 4406:444 JLINK_WriteReg(R13 (SP), 0x20001000)  returns 0x00 (0000ms, 1906ms total)
T2DE0 4406:444 JLINK_WriteReg(R14, 0x20000001)  returns 0x00 (0000ms, 1906ms total)
T2DE0 4406:444 JLINK_WriteReg(R15 (PC), 0x2000006A)  returns 0x00 (0000ms, 1906ms total)
T2DE0 4406:444 JLINK_WriteReg(XPSR, 0x01000000)  returns 0x00 (0000ms, 1906ms total)
T2DE0 4406:444 JLINK_WriteReg(MSP, 0x20001000)  returns 0x00 (0000ms, 1906ms total)
T2DE0 4406:444 JLINK_WriteReg(PSP, 0x20001000)  returns 0x00 (0000ms, 1906ms total)
T2DE0 4406:444 JLINK_WriteReg(CFBP, 0x00000000)  returns 0x00 (0000ms, 1906ms total)
T2DE0 4406:444 JLINK_SetBPEx(Addr = 0x20000000, Type = 0xFFFFFFF2)  returns 0x00000003 (0001ms, 1907ms total)
T2DE0 4406:445 JLINK_Go() -- CPU_ReadMem(4 bytes @ 0xE0001000) (0005ms, 1912ms total)
T2DE0 4406:450 JLINK_IsHalted() -- CPU_ReadMem(2 bytes @ 0x20000000)  returns TRUE (0005ms, 1917ms total)
T2DE0 4406:455 JLINK_ReadReg(R15 (PC))  returns 0x20000000 (0000ms, 1912ms total)
T2DE0 4406:455 JLINK_ClrBPEx(BPHandle = 0x00000003)  returns 0x00 (0000ms, 1912ms total)
T2DE0 4406:455 JLINK_ReadReg(R0)  returns 0x00000000 (0000ms, 1912ms total)
T2DE0 4406:458 JLINK_WriteMem(0x20000000, 0x0164 Bytes, ...) - Data: 00 BE 0A E0 0D 78 2D 06 68 40 08 24 40 00 00 D3 ... -- CPU_WriteMem(356 bytes @ 0x20000000)  returns 0x164 (0005ms, 1917ms total)
T2DE0 4406:463 JLINK_WriteReg(R0, 0x08000000)  returns 0x00 (0000ms, 1917ms total)
T2DE0 4406:463 JLINK_WriteReg(R1, 0x00B71B00)  returns 0x00 (0000ms, 1917ms total)
T2DE0 4406:463 JLINK_WriteReg(R2, 0x00000002)  returns 0x00 (0000ms, 1917ms total)
T2DE0 4406:463 JLINK_WriteReg(R3, 0x00000000)  returns 0x00 (0000ms, 1917ms total)
T2DE0 4406:463 JLINK_WriteReg(R4, 0x00000000)  returns 0x00 (0000ms, 1917ms total)
T2DE0 4406:463 JLINK_WriteReg(R5, 0x00000000)  returns 0x00 (0000ms, 1917ms total)
T2DE0 4406:463 JLINK_WriteReg(R6, 0x00000000)  returns 0x00 (0000ms, 1917ms total)
T2DE0 4406:463 JLINK_WriteReg(R7, 0x00000000)  returns 0x00 (0000ms, 1917ms total)
T2DE0 4406:463 JLINK_WriteReg(R8, 0x00000000)  returns 0x00 (0000ms, 1917ms total)
T2DE0 4406:463 JLINK_WriteReg(R9, 0x20000160)  returns 0x00 (0000ms, 1917ms total)
T2DE0 4406:463 JLINK_WriteReg(R10, 0x00000000)  returns 0x00 (0000ms, 1917ms total)
T2DE0 4406:463 JLINK_WriteReg(R11, 0x00000000)  returns 0x00 (0000ms, 1917ms total)
T2DE0 4406:463 JLINK_WriteReg(R12, 0x00000000)  returns 0x00 (0000ms, 1917ms total)
T2DE0 4406:463 JLINK_WriteReg(R13 (SP), 0x20001000)  returns 0x00 (0000ms, 1917ms total)
T2DE0 4406:463 JLINK_WriteReg(R14, 0x20000001)  returns 0x00 (0000ms, 1917ms total)
T2DE0 4406:463 JLINK_WriteReg(R15 (PC), 0x20000038)  returns 0x00 (0000ms, 1917ms total)
T2DE0 4406:463 JLINK_WriteReg(XPSR, 0x01000000)  returns 0x00 (0000ms, 1917ms total)
T2DE0 4406:463 JLINK_WriteReg(MSP, 0x20001000)  returns 0x00 (0000ms, 1917ms total)
T2DE0 4406:463 JLINK_WriteReg(PSP, 0x20001000)  returns 0x00 (0000ms, 1917ms total)
T2DE0 4406:463 JLINK_WriteReg(CFBP, 0x00000000)  returns 0x00 (0000ms, 1917ms total)
T2DE0 4406:463 JLINK_SetBPEx(Addr = 0x20000000, Type = 0xFFFFFFF2) -- CPU_ReadMem(2 bytes @ 0x20000000)  returns 0x00000004 (0001ms, 1918ms total)
T2DE0 4406:464 JLINK_Go() -- CPU_WriteMem(2 bytes @ 0x20000000) -- CPU_ReadMem(4 bytes @ 0xE0001000) (0006ms, 1924ms total)
T2DE0 4406:470 JLINK_IsHalted() -- CPU_ReadMem(2 bytes @ 0x20000000)  returns TRUE (0006ms, 1930ms total)
T2DE0 4406:476 JLINK_ReadReg(R15 (PC))  returns 0x20000000 (0000ms, 1924ms total)
T2DE0 4406:476 JLINK_ClrBPEx(BPHandle = 0x00000004)  returns 0x00 (0000ms, 1924ms total)
T2DE0 4406:476 JLINK_ReadReg(R0)  returns 0x00000000 (0000ms, 1924ms total)
T2DE0 4406:476 JLINK_WriteMem(0x20000164, 0x029C Bytes, ...) - Data: D0 2D 00 20 01 01 00 08 1B 13 00 08 91 12 00 08 ... -- CPU_WriteMem(668 bytes @ 0x20000164)  returns 0x29C (0006ms, 1930ms total)
T2DE0 4406:482 JLINK_WriteMem(0x20000400, 0x0164 Bytes, ...) - Data: 40 1A 10 BD 30 B5 04 46 00 20 03 46 00 E0 5B 1C ... -- CPU_WriteMem(356 bytes @ 0x20000400)  returns 0x164 (0004ms, 1934ms total)
T2DE0 4406:486 JLINK_WriteReg(R0, 0x08000000)  returns 0x00 (0000ms, 1934ms total)
T2DE0 4406:486 JLINK_WriteReg(R1, 0x00000400)  returns 0x00 (0000ms, 1934ms total)
T2DE0 4406:486 JLINK_WriteReg(R2, 0x20000164)  returns 0x00 (0000ms, 1934ms total)
T2DE0 4406:486 JLINK_WriteReg(R3, 0x00000000)  returns 0x00 (0000ms, 1934ms total)
T2DE0 4406:486 JLINK_WriteReg(R4, 0x00000000)  returns 0x00 (0000ms, 1934ms total)
T2DE0 4406:486 JLINK_WriteReg(R5, 0x00000000)  returns 0x00 (0000ms, 1934ms total)
T2DE0 4406:486 JLINK_WriteReg(R6, 0x00000000)  returns 0x00 (0000ms, 1934ms total)
T2DE0 4406:486 JLINK_WriteReg(R7, 0x00000000)  returns 0x00 (0000ms, 1934ms total)
T2DE0 4406:486 JLINK_WriteReg(R8, 0x00000000)  returns 0x00 (0000ms, 1934ms total)
T2DE0 4406:486 JLINK_WriteReg(R9, 0x20000160)  returns 0x00 (0000ms, 1934ms total)
T2DE0 4406:486 JLINK_WriteReg(R10, 0x00000000)  returns 0x00 (0000ms, 1934ms total)
T2DE0 4406:486 JLINK_WriteReg(R11, 0x00000000)  returns 0x00 (0000ms, 1934ms total)
T2DE0 4406:486 JLINK_WriteReg(R12, 0x00000000)  returns 0x00 (0000ms, 1934ms total)
T2DE0 4406:486 JLINK_WriteReg(R13 (SP), 0x20001000)  returns 0x00 (0000ms, 1934ms total)
T2DE0 4406:486 JLINK_WriteReg(R14, 0x20000001)  returns 0x00 (0000ms, 1934ms total)
T2DE0 4406:486 JLINK_WriteReg(R15 (PC), 0x200000F4)  returns 0x00 (0000ms, 1934ms total)
T2DE0 4406:486 JLINK_WriteReg(XPSR, 0x01000000)  returns 0x00 (0000ms, 1934ms total)
T2DE0 4406:486 JLINK_WriteReg(MSP, 0x20001000)  returns 0x00 (0000ms, 1934ms total)
T2DE0 4406:486 JLINK_WriteReg(PSP, 0x20001000)  returns 0x00 (0000ms, 1934ms total)
T2DE0 4406:486 JLINK_WriteReg(CFBP, 0x00000000)  returns 0x00 (0000ms, 1934ms total)
T2DE0 4406:486 JLINK_SetBPEx(Addr = 0x20000000, Type = 0xFFFFFFF2)  returns 0x00000005 (0000ms, 1934ms total)
T2DE0 4406:486 JLINK_Go() -- CPU_ReadMem(4 bytes @ 0xE0001000) (0006ms, 1940ms total)
T2DE0 4406:492 JLINK_IsHalted()  returns FALSE (0002ms, 1942ms total)
T2DE0 4406:523 JLINK_IsHalted() -- CPU_ReadMem(2 bytes @ 0x20000000)  returns TRUE (0005ms, 1945ms total)
T2DE0 4406:528 JLINK_ReadReg(R15 (PC))  returns 0x20000000 (0000ms, 1940ms total)
T2DE0 4406:528 JLINK_ClrBPEx(BPHandle = 0x00000005)  returns 0x00 (0000ms, 1940ms total)
T2DE0 4406:528 JLINK_ReadReg(R0)  returns 0x00000000 (0000ms, 1940ms total)
T2DE0 4406:529 JLINK_WriteMem(0x20000164, 0x029C Bytes, ...) - Data: 02 D4 6F F0 01 00 A8 E7 E0 07 25 D1 60 06 13 D5 ... -- CPU_WriteMem(668 bytes @ 0x20000164)  returns 0x29C (0005ms, 1945ms total)
T2DE0 4406:534 JLINK_WriteMem(0x20000400, 0x0164 Bytes, ...) - Data: 12 F8 01 0F 08 B1 02 25 00 E0 04 25 02 CC 28 46 ... -- CPU_WriteMem(356 bytes @ 0x20000400)  returns 0x164 (0004ms, 1949ms total)
T2DE0 4406:538 JLINK_WriteReg(R0, 0x08000400)  returns 0x00 (0000ms, 1949ms total)
T2DE0 4406:538 JLINK_WriteReg(R1, 0x00000400)  returns 0x00 (0000ms, 1949ms total)
T2DE0 4406:538 JLINK_WriteReg(R2, 0x20000164)  returns 0x00 (0000ms, 1949ms total)
T2DE0 4406:538 JLINK_WriteReg(R3, 0x00000000)  returns 0x00 (0000ms, 1949ms total)
T2DE0 4406:538 JLINK_WriteReg(R4, 0x00000000)  returns 0x00 (0000ms, 1949ms total)
T2DE0 4406:538 JLINK_WriteReg(R5, 0x00000000)  returns 0x00 (0000ms, 1949ms total)
T2DE0 4406:538 JLINK_WriteReg(R6, 0x00000000)  returns 0x00 (0000ms, 1949ms total)
T2DE0 4406:538 JLINK_WriteReg(R7, 0x00000000)  returns 0x00 (0000ms, 1949ms total)
T2DE0 4406:538 JLINK_WriteReg(R8, 0x00000000)  returns 0x00 (0000ms, 1949ms total)
T2DE0 4406:538 JLINK_WriteReg(R9, 0x20000160)  returns 0x00 (0000ms, 1949ms total)
T2DE0 4406:538 JLINK_WriteReg(R10, 0x00000000)  returns 0x00 (0000ms, 1949ms total)
T2DE0 4406:538 JLINK_WriteReg(R11, 0x00000000)  returns 0x00 (0000ms, 1949ms total)
T2DE0 4406:538 JLINK_WriteReg(R12, 0x00000000)  returns 0x00 (0000ms, 1949ms total)
T2DE0 4406:538 JLINK_WriteReg(R13 (SP), 0x20001000)  returns 0x00 (0000ms, 1949ms total)
T2DE0 4406:538 JLINK_WriteReg(R14, 0x20000001)  returns 0x00 (0000ms, 1949ms total)
T2DE0 4406:538 JLINK_WriteReg(R15 (PC), 0x200000F4)  returns 0x00 (0000ms, 1949ms total)
T2DE0 4406:538 JLINK_WriteReg(XPSR, 0x01000000)  returns 0x00 (0000ms, 1949ms total)
T2DE0 4406:538 JLINK_WriteReg(MSP, 0x20001000)  returns 0x00 (0000ms, 1949ms total)
T2DE0 4406:538 JLINK_WriteReg(PSP, 0x20001000)  returns 0x00 (0000ms, 1949ms total)
T2DE0 4406:538 JLINK_WriteReg(CFBP, 0x00000000)  returns 0x00 (0000ms, 1949ms total)
T2DE0 4406:538 JLINK_SetBPEx(Addr = 0x20000000, Type = 0xFFFFFFF2)  returns 0x00000006 (0000ms, 1949ms total)
T2DE0 4406:538 JLINK_Go() -- CPU_ReadMem(4 bytes @ 0xE0001000) (0006ms, 1955ms total)
T2DE0 4406:544 JLINK_IsHalted()  returns FALSE (0002ms, 1957ms total)
T2DE0 4406:588 JLINK_IsHalted() -- CPU_ReadMem(2 bytes @ 0x20000000)  returns TRUE (0006ms, 1961ms total)
T2DE0 4406:594 JLINK_ReadReg(R15 (PC))  returns 0x20000000 (0000ms, 1955ms total)
T2DE0 4406:594 JLINK_ClrBPEx(BPHandle = 0x00000006)  returns 0x00 (0000ms, 1955ms total)
T2DE0 4406:594 JLINK_ReadReg(R0)  returns 0x00000000 (0000ms, 1955ms total)
T2DE0 4406:594 JLINK_WriteMem(0x20000164, 0x029C Bytes, ...) - Data: C2 F1 20 03 20 FA 03 F3 19 43 90 40 70 47 70 B5 ... -- CPU_WriteMem(668 bytes @ 0x20000164)  returns 0x29C (0006ms, 1961ms total)
T2DE0 4406:600 JLINK_WriteMem(0x20000400, 0x0164 Bytes, ...) - Data: 21 A0 A0 47 0C B0 10 BD 0D 0A 3D 3D 3D 3D 3D 20 ... -- CPU_WriteMem(356 bytes @ 0x20000400)  returns 0x164 (0004ms, 1965ms total)
T2DE0 4406:604 JLINK_WriteReg(R0, 0x08000800)  returns 0x00 (0000ms, 1965ms total)
T2DE0 4406:604 JLINK_WriteReg(R1, 0x00000400)  returns 0x00 (0000ms, 1965ms total)
T2DE0 4406:604 JLINK_WriteReg(R2, 0x20000164)  returns 0x00 (0000ms, 1965ms total)
T2DE0 4406:604 JLINK_WriteReg(R3, 0x00000000)  returns 0x00 (0000ms, 1965ms total)
T2DE0 4406:604 JLINK_WriteReg(R4, 0x00000000)  returns 0x00 (0000ms, 1965ms total)
T2DE0 4406:604 JLINK_WriteReg(R5, 0x00000000)  returns 0x00 (0000ms, 1965ms total)
T2DE0 4406:604 JLINK_WriteReg(R6, 0x00000000)  returns 0x00 (0000ms, 1965ms total)
T2DE0 4406:604 JLINK_WriteReg(R7, 0x00000000)  returns 0x00 (0000ms, 1965ms total)
T2DE0 4406:604 JLINK_WriteReg(R8, 0x00000000)  returns 0x00 (0000ms, 1965ms total)
T2DE0 4406:604 JLINK_WriteReg(R9, 0x20000160)  returns 0x00 (0000ms, 1965ms total)
T2DE0 4406:604 JLINK_WriteReg(R10, 0x00000000)  returns 0x00 (0000ms, 1965ms total)
T2DE0 4406:604 JLINK_WriteReg(R11, 0x00000000)  returns 0x00 (0000ms, 1965ms total)
T2DE0 4406:604 JLINK_WriteReg(R12, 0x00000000)  returns 0x00 (0000ms, 1965ms total)
T2DE0 4406:604 JLINK_WriteReg(R13 (SP), 0x20001000)  returns 0x00 (0000ms, 1965ms total)
T2DE0 4406:604 JLINK_WriteReg(R14, 0x20000001)  returns 0x00 (0000ms, 1965ms total)
T2DE0 4406:604 JLINK_WriteReg(R15 (PC), 0x200000F4)  returns 0x00 (0000ms, 1965ms total)
T2DE0 4406:604 JLINK_WriteReg(XPSR, 0x01000000)  returns 0x00 (0000ms, 1965ms total)
T2DE0 4406:604 JLINK_WriteReg(MSP, 0x20001000)  returns 0x00 (0000ms, 1965ms total)
T2DE0 4406:604 JLINK_WriteReg(PSP, 0x20001000)  returns 0x00 (0000ms, 1965ms total)
T2DE0 4406:604 JLINK_WriteReg(CFBP, 0x00000000)  returns 0x00 (0000ms, 1965ms total)
T2DE0 4406:604 JLINK_SetBPEx(Addr = 0x20000000, Type = 0xFFFFFFF2)  returns 0x00000007 (0000ms, 1965ms total)
T2DE0 4406:604 JLINK_Go() -- CPU_ReadMem(4 bytes @ 0xE0001000) (0006ms, 1971ms total)
T2DE0 4406:610 JLINK_IsHalted()  returns FALSE (0002ms, 1973ms total)
T2DE0 4406:629 JLINK_IsHalted()  returns FALSE (0001ms, 1972ms total)
T2DE0 4406:633 JLINK_IsHalted()  returns FALSE (0001ms, 1972ms total)
T2DE0 4406:649 JLINK_IsHalted() -- CPU_ReadMem(2 bytes @ 0x20000000)  returns TRUE (0005ms, 1976ms total)
T2DE0 4406:654 JLINK_ReadReg(R15 (PC))  returns 0x20000000 (0000ms, 1971ms total)
T2DE0 4406:654 JLINK_ClrBPEx(BPHandle = 0x00000007)  returns 0x00 (0000ms, 1971ms total)
T2DE0 4406:654 JLINK_ReadReg(R0)  returns 0x00000000 (0000ms, 1971ms total)
T2DE0 4406:655 JLINK_WriteMem(0x20000164, 0x029C Bytes, ...) - Data: 0C D0 41 46 00 F0 66 F8 01 28 07 D0 34 F8 16 00 ... -- CPU_WriteMem(668 bytes @ 0x20000164)  returns 0x29C (0005ms, 1976ms total)
T2DE0 4406:660 JLINK_WriteMem(0x20000400, 0x0164 Bytes, ...) - Data: 88 60 C8 68 10 43 C8 60 70 47 02 79 00 68 11 43 ... -- CPU_WriteMem(356 bytes @ 0x20000400)  returns 0x164 (0005ms, 1981ms total)
T2DE0 4406:665 JLINK_WriteReg(R0, 0x08000C00)  returns 0x00 (0000ms, 1981ms total)
T2DE0 4406:665 JLINK_WriteReg(R1, 0x00000400)  returns 0x00 (0000ms, 1981ms total)
T2DE0 4406:665 JLINK_WriteReg(R2, 0x20000164)  returns 0x00 (0000ms, 1981ms total)
T2DE0 4406:665 JLINK_WriteReg(R3, 0x00000000)  returns 0x00 (0000ms, 1981ms total)
T2DE0 4406:665 JLINK_WriteReg(R4, 0x00000000)  returns 0x00 (0000ms, 1981ms total)
T2DE0 4406:665 JLINK_WriteReg(R5, 0x00000000)  returns 0x00 (0000ms, 1981ms total)
T2DE0 4406:665 JLINK_WriteReg(R6, 0x00000000)  returns 0x00 (0000ms, 1981ms total)
T2DE0 4406:665 JLINK_WriteReg(R7, 0x00000000)  returns 0x00 (0000ms, 1981ms total)
T2DE0 4406:665 JLINK_WriteReg(R8, 0x00000000)  returns 0x00 (0000ms, 1981ms total)
T2DE0 4406:665 JLINK_WriteReg(R9, 0x20000160)  returns 0x00 (0000ms, 1981ms total)
T2DE0 4406:665 JLINK_WriteReg(R10, 0x00000000)  returns 0x00 (0000ms, 1981ms total)
T2DE0 4406:665 JLINK_WriteReg(R11, 0x00000000)  returns 0x00 (0000ms, 1981ms total)
T2DE0 4406:665 JLINK_WriteReg(R12, 0x00000000)  returns 0x00 (0000ms, 1981ms total)
T2DE0 4406:665 JLINK_WriteReg(R13 (SP), 0x20001000)  returns 0x00 (0000ms, 1981ms total)
T2DE0 4406:665 JLINK_WriteReg(R14, 0x20000001)  returns 0x00 (0000ms, 1981ms total)
T2DE0 4406:665 JLINK_WriteReg(R15 (PC), 0x200000F4)  returns 0x00 (0000ms, 1981ms total)
T2DE0 4406:665 JLINK_WriteReg(XPSR, 0x01000000)  returns 0x00 (0000ms, 1981ms total)
T2DE0 4406:665 JLINK_WriteReg(MSP, 0x20001000)  returns 0x00 (0000ms, 1981ms total)
T2DE0 4406:665 JLINK_WriteReg(PSP, 0x20001000)  returns 0x00 (0000ms, 1981ms total)
T2DE0 4406:665 JLINK_WriteReg(CFBP, 0x00000000)  returns 0x00 (0000ms, 1981ms total)
T2DE0 4406:665 JLINK_SetBPEx(Addr = 0x20000000, Type = 0xFFFFFFF2)  returns 0x00000008 (0000ms, 1981ms total)
T2DE0 4406:665 JLINK_Go() -- CPU_ReadMem(4 bytes @ 0xE0001000) (0005ms, 1986ms total)
T2DE0 4406:670 JLINK_IsHalted()  returns FALSE (0002ms, 1988ms total)
T2DE0 4406:730 JLINK_IsHalted() -- CPU_ReadMem(2 bytes @ 0x20000000)  returns TRUE (0006ms, 1992ms total)
T2DE0 4406:736 JLINK_ReadReg(R15 (PC))  returns 0x20000000 (0000ms, 1986ms total)
T2DE0 4406:736 JLINK_ClrBPEx(BPHandle = 0x00000008)  returns 0x00 (0000ms, 1986ms total)
T2DE0 4406:736 JLINK_ReadReg(R0)  returns 0x00000000 (0000ms, 1986ms total)
T2DE0 4406:736 JLINK_WriteMem(0x20000164, 0x029C Bytes, ...) - Data: 80 00 00 00 00 01 00 00 2D E9 F0 43 91 F8 03 E0 ... -- CPU_WriteMem(668 bytes @ 0x20000164)  returns 0x29C (0005ms, 1991ms total)
T2DE0 4406:741 JLINK_WriteMem(0x20000400, 0x0164 Bytes, ...) - Data: B5 49 28 B1 4F F4 00 30 08 60 00 F0 A5 F9 01 E0 ... -- CPU_WriteMem(356 bytes @ 0x20000400)  returns 0x164 (0004ms, 1995ms total)
T2DE0 4406:745 JLINK_WriteReg(R0, 0x08001000)  returns 0x00 (0000ms, 1995ms total)
T2DE0 4406:745 JLINK_WriteReg(R1, 0x00000400)  returns 0x00 (0000ms, 1995ms total)
T2DE0 4406:745 JLINK_WriteReg(R2, 0x20000164)  returns 0x00 (0000ms, 1995ms total)
T2DE0 4406:745 JLINK_WriteReg(R3, 0x00000000)  returns 0x00 (0000ms, 1995ms total)
T2DE0 4406:745 JLINK_WriteReg(R4, 0x00000000)  returns 0x00 (0000ms, 1995ms total)
T2DE0 4406:745 JLINK_WriteReg(R5, 0x00000000)  returns 0x00 (0000ms, 1995ms total)
T2DE0 4406:745 JLINK_WriteReg(R6, 0x00000000)  returns 0x00 (0000ms, 1995ms total)
T2DE0 4406:745 JLINK_WriteReg(R7, 0x00000000)  returns 0x00 (0000ms, 1995ms total)
T2DE0 4406:745 JLINK_WriteReg(R8, 0x00000000)  returns 0x00 (0000ms, 1995ms total)
T2DE0 4406:745 JLINK_WriteReg(R9, 0x20000160)  returns 0x00 (0000ms, 1995ms total)
T2DE0 4406:745 JLINK_WriteReg(R10, 0x00000000)  returns 0x00 (0000ms, 1995ms total)
T2DE0 4406:745 JLINK_WriteReg(R11, 0x00000000)  returns 0x00 (0000ms, 1995ms total)
T2DE0 4406:745 JLINK_WriteReg(R12, 0x00000000)  returns 0x00 (0000ms, 1995ms total)
T2DE0 4406:745 JLINK_WriteReg(R13 (SP), 0x20001000)  returns 0x00 (0000ms, 1995ms total)
T2DE0 4406:745 JLINK_WriteReg(R14, 0x20000001)  returns 0x00 (0000ms, 1995ms total)
T2DE0 4406:745 JLINK_WriteReg(R15 (PC), 0x200000F4)  returns 0x00 (0000ms, 1995ms total)
T2DE0 4406:745 JLINK_WriteReg(XPSR, 0x01000000)  returns 0x00 (0000ms, 1995ms total)
T2DE0 4406:745 JLINK_WriteReg(MSP, 0x20001000)  returns 0x00 (0000ms, 1995ms total)
T2DE0 4406:745 JLINK_WriteReg(PSP, 0x20001000)  returns 0x00 (0000ms, 1995ms total)
T2DE0 4406:745 JLINK_WriteReg(CFBP, 0x00000000)  returns 0x00 (0000ms, 1995ms total)
T2DE0 4406:745 JLINK_SetBPEx(Addr = 0x20000000, Type = 0xFFFFFFF2)  returns 0x00000009 (0000ms, 1995ms total)
T2DE0 4406:745 JLINK_Go() -- CPU_ReadMem(4 bytes @ 0xE0001000) (0005ms, 2000ms total)
T2DE0 4406:750 JLINK_IsHalted()  returns FALSE (0001ms, 2001ms total)
T2DE0 4406:754 JLINK_IsHalted()  returns FALSE (0001ms, 2001ms total)
T2DE0 4406:758 JLINK_IsHalted()  returns FALSE (0001ms, 2001ms total)
T2DE0 4406:763 JLINK_IsHalted()  returns FALSE (0001ms, 2001ms total)
T2DE0 4406:767 JLINK_IsHalted()  returns FALSE (0002ms, 2002ms total)
T2DE0 4406:770 JLINK_IsHalted()  returns FALSE (0001ms, 2001ms total)
T2DE0 4406:773 JLINK_IsHalted()  returns FALSE (0001ms, 2001ms total)
T2DE0 4406:777 JLINK_IsHalted()  returns FALSE (0002ms, 2002ms total)
T2DE0 4406:780 JLINK_IsHalted()  returns FALSE (0001ms, 2001ms total)
T2DE0 4406:784 JLINK_IsHalted() -- CPU_ReadMem(2 bytes @ 0x20000000)  returns TRUE (0005ms, 2005ms total)
T2DE0 4406:789 JLINK_ReadReg(R15 (PC))  returns 0x20000000 (0000ms, 2000ms total)
T2DE0 4406:789 JLINK_ClrBPEx(BPHandle = 0x00000009)  returns 0x00 (0000ms, 2000ms total)
T2DE0 4406:789 JLINK_ReadReg(R0)  returns 0x00000000 (0000ms, 2000ms total)
T2DE0 4406:789 JLINK_WriteMem(0x20000164, 0x029C Bytes, ...) - Data: 00 23 05 F0 EB F8 05 46 A0 42 05 D1 09 A0 21 46 ... -- CPU_WriteMem(668 bytes @ 0x20000164)  returns 0x29C (0006ms, 2006ms total)
T2DE0 4406:795 JLINK_WriteMem(0x20000400, 0x0164 Bytes, ...) - Data: 18 BF 01 20 70 47 00 BF 34 48 03 49 C0 F8 12 10 ... -- CPU_WriteMem(356 bytes @ 0x20000400)  returns 0x164 (0003ms, 2009ms total)
T2DE0 4406:798 JLINK_WriteReg(R0, 0x08001400)  returns 0x00 (0000ms, 2009ms total)
T2DE0 4406:798 JLINK_WriteReg(R1, 0x00000400)  returns 0x00 (0000ms, 2009ms total)
T2DE0 4406:798 JLINK_WriteReg(R2, 0x20000164)  returns 0x00 (0000ms, 2009ms total)
T2DE0 4406:798 JLINK_WriteReg(R3, 0x00000000)  returns 0x00 (0000ms, 2009ms total)
T2DE0 4406:798 JLINK_WriteReg(R4, 0x00000000)  returns 0x00 (0000ms, 2009ms total)
T2DE0 4406:798 JLINK_WriteReg(R5, 0x00000000)  returns 0x00 (0000ms, 2009ms total)
T2DE0 4406:798 JLINK_WriteReg(R6, 0x00000000)  returns 0x00 (0000ms, 2009ms total)
T2DE0 4406:798 JLINK_WriteReg(R7, 0x00000000)  returns 0x00 (0000ms, 2009ms total)
T2DE0 4406:798 JLINK_WriteReg(R8, 0x00000000)  returns 0x00 (0000ms, 2009ms total)
T2DE0 4406:798 JLINK_WriteReg(R9, 0x20000160)  returns 0x00 (0000ms, 2009ms total)
T2DE0 4406:798 JLINK_WriteReg(R10, 0x00000000)  returns 0x00 (0000ms, 2009ms total)
T2DE0 4406:798 JLINK_WriteReg(R11, 0x00000000)  returns 0x00 (0000ms, 2009ms total)
T2DE0 4406:798 JLINK_WriteReg(R12, 0x00000000)  returns 0x00 (0000ms, 2009ms total)
T2DE0 4406:798 JLINK_WriteReg(R13 (SP), 0x20001000)  returns 0x00 (0000ms, 2009ms total)
T2DE0 4406:798 JLINK_WriteReg(R14, 0x20000001)  returns 0x00 (0000ms, 2009ms total)
T2DE0 4406:798 JLINK_WriteReg(R15 (PC), 0x200000F4)  returns 0x00 (0000ms, 2009ms total)
T2DE0 4406:798 JLINK_WriteReg(XPSR, 0x01000000)  returns 0x00 (0000ms, 2009ms total)
T2DE0 4406:798 JLINK_WriteReg(MSP, 0x20001000)  returns 0x00 (0000ms, 2009ms total)
T2DE0 4406:798 JLINK_WriteReg(PSP, 0x20001000)  returns 0x00 (0000ms, 2009ms total)
T2DE0 4406:798 JLINK_WriteReg(CFBP, 0x00000000)  returns 0x00 (0000ms, 2009ms total)
T2DE0 4406:798 JLINK_SetBPEx(Addr = 0x20000000, Type = 0xFFFFFFF2)  returns 0x0000000A (0000ms, 2009ms total)
T2DE0 4406:798 JLINK_Go() -- CPU_ReadMem(4 bytes @ 0xE0001000) (0006ms, 2015ms total)
T2DE0 4406:804 JLINK_IsHalted()  returns FALSE (0002ms, 2017ms total)
T2DE0 4406:809 JLINK_IsHalted()  returns FALSE (0001ms, 2016ms total)
T2DE0 4406:812 JLINK_IsHalted()  returns FALSE (0001ms, 2016ms total)
T2DE0 4406:816 JLINK_IsHalted()  returns FALSE (0002ms, 2017ms total)
T2DE0 4406:819 JLINK_IsHalted()  returns FALSE (0001ms, 2016ms total)
T2DE0 4406:823 JLINK_IsHalted()  returns FALSE (0001ms, 2016ms total)
T2DE0 4406:826 JLINK_IsHalted()  returns FALSE (0002ms, 2017ms total)
T2DE0 4406:829 JLINK_IsHalted()  returns FALSE (0001ms, 2016ms total)
T2DE0 4406:833 JLINK_IsHalted()  returns FALSE (0000ms, 2015ms total)
T2DE0 4406:835 JLINK_IsHalted() -- CPU_ReadMem(2 bytes @ 0x20000000)  returns TRUE (0005ms, 2020ms total)
T2DE0 4406:840 JLINK_ReadReg(R15 (PC))  returns 0x20000000 (0000ms, 2015ms total)
T2DE0 4406:840 JLINK_ClrBPEx(BPHandle = 0x0000000A)  returns 0x00 (0000ms, 2015ms total)
T2DE0 4406:840 JLINK_ReadReg(R0)  returns 0x00000000 (0000ms, 2015ms total)
T2DE0 4406:842 JLINK_WriteMem(0x20000164, 0x029C Bytes, ...) - Data: 20 54 69 46 AD F8 10 00 08 20 03 90 0C 48 02 90 ... -- CPU_WriteMem(668 bytes @ 0x20000164)  returns 0x29C (0004ms, 2019ms total)
T2DE0 4406:846 JLINK_WriteMem(0x20000400, 0x0164 Bytes, ...) - Data: 00 29 42 F0 01 03 08 BF 22 F0 01 03 03 80 70 47 ... -- CPU_WriteMem(356 bytes @ 0x20000400)  returns 0x164 (0004ms, 2023ms total)
T2DE0 4406:850 JLINK_WriteReg(R0, 0x08001800)  returns 0x00 (0000ms, 2023ms total)
T2DE0 4406:850 JLINK_WriteReg(R1, 0x00000400)  returns 0x00 (0000ms, 2023ms total)
T2DE0 4406:850 JLINK_WriteReg(R2, 0x20000164)  returns 0x00 (0000ms, 2023ms total)
T2DE0 4406:850 JLINK_WriteReg(R3, 0x00000000)  returns 0x00 (0000ms, 2023ms total)
T2DE0 4406:850 JLINK_WriteReg(R4, 0x00000000)  returns 0x00 (0000ms, 2023ms total)
T2DE0 4406:850 JLINK_WriteReg(R5, 0x00000000)  returns 0x00 (0000ms, 2023ms total)
T2DE0 4406:850 JLINK_WriteReg(R6, 0x00000000)  returns 0x00 (0000ms, 2023ms total)
T2DE0 4406:850 JLINK_WriteReg(R7, 0x00000000)  returns 0x00 (0000ms, 2023ms total)
T2DE0 4406:850 JLINK_WriteReg(R8, 0x00000000)  returns 0x00 (0000ms, 2023ms total)
T2DE0 4406:850 JLINK_WriteReg(R9, 0x20000160)  returns 0x00 (0000ms, 2023ms total)
T2DE0 4406:850 JLINK_WriteReg(R10, 0x00000000)  returns 0x00 (0000ms, 2023ms total)
T2DE0 4406:850 JLINK_WriteReg(R11, 0x00000000)  returns 0x00 (0000ms, 2023ms total)
T2DE0 4406:850 JLINK_WriteReg(R12, 0x00000000)  returns 0x00 (0000ms, 2023ms total)
T2DE0 4406:850 JLINK_WriteReg(R13 (SP), 0x20001000)  returns 0x00 (0000ms, 2023ms total)
T2DE0 4406:850 JLINK_WriteReg(R14, 0x20000001)  returns 0x00 (0000ms, 2023ms total)
T2DE0 4406:850 JLINK_WriteReg(R15 (PC), 0x200000F4)  returns 0x00 (0000ms, 2023ms total)
T2DE0 4406:850 JLINK_WriteReg(XPSR, 0x01000000)  returns 0x00 (0000ms, 2023ms total)
T2DE0 4406:850 JLINK_WriteReg(MSP, 0x20001000)  returns 0x00 (0000ms, 2023ms total)
T2DE0 4406:850 JLINK_WriteReg(PSP, 0x20001000)  returns 0x00 (0000ms, 2023ms total)
T2DE0 4406:850 JLINK_WriteReg(CFBP, 0x00000000)  returns 0x00 (0000ms, 2023ms total)
T2DE0 4406:850 JLINK_SetBPEx(Addr = 0x20000000, Type = 0xFFFFFFF2)  returns 0x0000000B (0000ms, 2023ms total)
T2DE0 4406:850 JLINK_Go() -- CPU_ReadMem(4 bytes @ 0xE0001000) (0005ms, 2028ms total)
T2DE0 4406:855 JLINK_IsHalted()  returns FALSE (0002ms, 2030ms total)
T2DE0 4406:860 JLINK_IsHalted()  returns FALSE (0002ms, 2030ms total)
T2DE0 4406:864 JLINK_IsHalted()  returns FALSE (0001ms, 2029ms total)
T2DE0 4406:867 JLINK_IsHalted()  returns FALSE (0001ms, 2029ms total)
T2DE0 4406:870 JLINK_IsHalted()  returns FALSE (0002ms, 2030ms total)
T2DE0 4406:875 JLINK_IsHalted()  returns FALSE (0001ms, 2029ms total)
T2DE0 4406:878 JLINK_IsHalted()  returns FALSE (0002ms, 2030ms total)
T2DE0 4406:884 JLINK_IsHalted()  returns FALSE (0001ms, 2029ms total)
T2DE0 4406:888 JLINK_IsHalted() -- CPU_ReadMem(2 bytes @ 0x20000000)  returns TRUE (0005ms, 2033ms total)
T2DE0 4406:893 JLINK_ReadReg(R15 (PC))  returns 0x20000000 (0000ms, 2028ms total)
T2DE0 4406:893 JLINK_ClrBPEx(BPHandle = 0x0000000B)  returns 0x00 (0000ms, 2028ms total)
T2DE0 4406:893 JLINK_ReadReg(R0)  returns 0x00000000 (0000ms, 2028ms total)
T2DE0 4406:893 JLINK_WriteMem(0x20000164, 0x029C Bytes, ...) - Data: 2E 60 BD F8 2C 30 CD E9 07 27 C6 F3 45 12 06 92 ... -- CPU_WriteMem(668 bytes @ 0x20000164)  returns 0x29C (0005ms, 2033ms total)
T2DE0 4406:898 JLINK_WriteMem(0x20000400, 0x0164 Bytes, ...) - Data: 9F BB 4F F4 00 30 01 21 FF F7 82 FB 4F F4 00 30 ... -- CPU_WriteMem(356 bytes @ 0x20000400)  returns 0x164 (0004ms, 2037ms total)
T2DE0 4406:902 JLINK_WriteReg(R0, 0x08001C00)  returns 0x00 (0000ms, 2037ms total)
T2DE0 4406:902 JLINK_WriteReg(R1, 0x00000400)  returns 0x00 (0000ms, 2037ms total)
T2DE0 4406:902 JLINK_WriteReg(R2, 0x20000164)  returns 0x00 (0000ms, 2037ms total)
T2DE0 4406:902 JLINK_WriteReg(R3, 0x00000000)  returns 0x00 (0000ms, 2037ms total)
T2DE0 4406:902 JLINK_WriteReg(R4, 0x00000000)  returns 0x00 (0000ms, 2037ms total)
T2DE0 4406:902 JLINK_WriteReg(R5, 0x00000000)  returns 0x00 (0000ms, 2037ms total)
T2DE0 4406:902 JLINK_WriteReg(R6, 0x00000000)  returns 0x00 (0000ms, 2037ms total)
T2DE0 4406:902 JLINK_WriteReg(R7, 0x00000000)  returns 0x00 (0000ms, 2037ms total)
T2DE0 4406:902 JLINK_WriteReg(R8, 0x00000000)  returns 0x00 (0000ms, 2037ms total)
T2DE0 4406:902 JLINK_WriteReg(R9, 0x20000160)  returns 0x00 (0000ms, 2037ms total)
T2DE0 4406:902 JLINK_WriteReg(R10, 0x00000000)  returns 0x00 (0000ms, 2037ms total)
T2DE0 4406:902 JLINK_WriteReg(R11, 0x00000000)  returns 0x00 (0000ms, 2037ms total)
T2DE0 4406:902 JLINK_WriteReg(R12, 0x00000000)  returns 0x00 (0000ms, 2037ms total)
T2DE0 4406:902 JLINK_WriteReg(R13 (SP), 0x20001000)  returns 0x00 (0000ms, 2037ms total)
T2DE0 4406:902 JLINK_WriteReg(R14, 0x20000001)  returns 0x00 (0000ms, 2037ms total)
T2DE0 4406:902 JLINK_WriteReg(R15 (PC), 0x200000F4)  returns 0x00 (0000ms, 2037ms total)
T2DE0 4406:902 JLINK_WriteReg(XPSR, 0x01000000)  returns 0x00 (0000ms, 2037ms total)
T2DE0 4406:902 JLINK_WriteReg(MSP, 0x20001000)  returns 0x00 (0000ms, 2037ms total)
T2DE0 4406:902 JLINK_WriteReg(PSP, 0x20001000)  returns 0x00 (0000ms, 2037ms total)
T2DE0 4406:902 JLINK_WriteReg(CFBP, 0x00000000)  returns 0x00 (0000ms, 2037ms total)
T2DE0 4406:902 JLINK_SetBPEx(Addr = 0x20000000, Type = 0xFFFFFFF2)  returns 0x0000000C (0000ms, 2037ms total)
T2DE0 4406:902 JLINK_Go() -- CPU_ReadMem(4 bytes @ 0xE0001000) (0005ms, 2042ms total)
T2DE0 4406:907 JLINK_IsHalted()  returns FALSE (0001ms, 2043ms total)
T2DE0 4406:912 JLINK_IsHalted()  returns FALSE (0001ms, 2043ms total)
T2DE0 4406:915 JLINK_IsHalted()  returns FALSE (0000ms, 2042ms total)
T2DE0 4406:917 JLINK_IsHalted()  returns FALSE (0000ms, 2042ms total)
T2DE0 4406:920 JLINK_IsHalted()  returns FALSE (0000ms, 2042ms total)
T2DE0 4406:922 JLINK_IsHalted()  returns FALSE (0001ms, 2043ms total)
T2DE0 4406:925 JLINK_IsHalted()  returns FALSE (0001ms, 2043ms total)
T2DE0 4406:928 JLINK_IsHalted()  returns FALSE (0002ms, 2044ms total)
T2DE0 4406:931 JLINK_IsHalted()  returns FALSE (0001ms, 2043ms total)
T2DE0 4406:934 JLINK_IsHalted()  returns FALSE (0002ms, 2044ms total)
T2DE0 4406:938 JLINK_IsHalted() -- CPU_ReadMem(2 bytes @ 0x20000000)  returns TRUE (0005ms, 2047ms total)
T2DE0 4406:943 JLINK_ReadReg(R15 (PC))  returns 0x20000000 (0000ms, 2042ms total)
T2DE0 4406:943 JLINK_ClrBPEx(BPHandle = 0x0000000C)  returns 0x00 (0000ms, 2042ms total)
T2DE0 4406:943 JLINK_ReadReg(R0)  returns 0x00000000 (0000ms, 2042ms total)
T2DE0 4406:943 JLINK_WriteMem(0x20000164, 0x029C Bytes, ...) - Data: 0F 01 B8 BF 07 21 08 40 40 EA 02 10 20 81 06 B0 ... -- CPU_WriteMem(668 bytes @ 0x20000164)  returns 0x29C (0005ms, 2047ms total)
T2DE0 4406:948 JLINK_WriteMem(0x20000400, 0x0164 Bytes, ...) - Data: 70 47 00 00 08 28 01 D9 FF 20 2E E0 70 B5 04 46 ... -- CPU_WriteMem(356 bytes @ 0x20000400)  returns 0x164 (0004ms, 2051ms total)
T2DE0 4406:952 JLINK_WriteReg(R0, 0x08002000)  returns 0x00 (0000ms, 2051ms total)
T2DE0 4406:952 JLINK_WriteReg(R1, 0x00000400)  returns 0x00 (0000ms, 2051ms total)
T2DE0 4406:952 JLINK_WriteReg(R2, 0x20000164)  returns 0x00 (0000ms, 2051ms total)
T2DE0 4406:952 JLINK_WriteReg(R3, 0x00000000)  returns 0x00 (0000ms, 2051ms total)
T2DE0 4406:952 JLINK_WriteReg(R4, 0x00000000)  returns 0x00 (0000ms, 2051ms total)
T2DE0 4406:952 JLINK_WriteReg(R5, 0x00000000)  returns 0x00 (0000ms, 2051ms total)
T2DE0 4406:952 JLINK_WriteReg(R6, 0x00000000)  returns 0x00 (0000ms, 2051ms total)
T2DE0 4406:952 JLINK_WriteReg(R7, 0x00000000)  returns 0x00 (0000ms, 2051ms total)
T2DE0 4406:952 JLINK_WriteReg(R8, 0x00000000)  returns 0x00 (0000ms, 2051ms total)
T2DE0 4406:952 JLINK_WriteReg(R9, 0x20000160)  returns 0x00 (0000ms, 2051ms total)
T2DE0 4406:952 JLINK_WriteReg(R10, 0x00000000)  returns 0x00 (0000ms, 2051ms total)
T2DE0 4406:952 JLINK_WriteReg(R11, 0x00000000)  returns 0x00 (0000ms, 2051ms total)
T2DE0 4406:952 JLINK_WriteReg(R12, 0x00000000)  returns 0x00 (0000ms, 2051ms total)
T2DE0 4406:952 JLINK_WriteReg(R13 (SP), 0x20001000)  returns 0x00 (0000ms, 2051ms total)
T2DE0 4406:952 JLINK_WriteReg(R14, 0x20000001)  returns 0x00 (0000ms, 2051ms total)
T2DE0 4406:952 JLINK_WriteReg(R15 (PC), 0x200000F4)  returns 0x00 (0000ms, 2051ms total)
T2DE0 4406:952 JLINK_WriteReg(XPSR, 0x01000000)  returns 0x00 (0000ms, 2051ms total)
T2DE0 4406:952 JLINK_WriteReg(MSP, 0x20001000)  returns 0x00 (0000ms, 2051ms total)
T2DE0 4406:952 JLINK_WriteReg(PSP, 0x20001000)  returns 0x00 (0000ms, 2051ms total)
T2DE0 4406:952 JLINK_WriteReg(CFBP, 0x00000000)  returns 0x00 (0000ms, 2051ms total)
T2DE0 4406:952 JLINK_SetBPEx(Addr = 0x20000000, Type = 0xFFFFFFF2)  returns 0x0000000D (0000ms, 2051ms total)
T2DE0 4406:952 JLINK_Go() -- CPU_ReadMem(4 bytes @ 0xE0001000) (0006ms, 2057ms total)
T2DE0 4406:958 JLINK_IsHalted()  returns FALSE (0001ms, 2058ms total)
T2DE0 4406:962 JLINK_IsHalted()  returns FALSE (0002ms, 2059ms total)
T2DE0 4406:968 JLINK_IsHalted()  returns FALSE (0000ms, 2057ms total)
T2DE0 4406:971 JLINK_IsHalted()  returns FALSE (0001ms, 2058ms total)
T2DE0 4406:974 JLINK_IsHalted()  returns FALSE (0001ms, 2058ms total)
T2DE0 4406:977 JLINK_IsHalted()  returns FALSE (0001ms, 2058ms total)
T2DE0 4406:980 JLINK_IsHalted()  returns FALSE (0001ms, 2058ms total)
T2DE0 4406:985 JLINK_IsHalted()  returns FALSE (0001ms, 2058ms total)
T2DE0 4406:988 JLINK_IsHalted() -- CPU_ReadMem(2 bytes @ 0x20000000)  returns TRUE (0006ms, 2063ms total)
T2DE0 4406:994 JLINK_ReadReg(R15 (PC))  returns 0x20000000 (0000ms, 2057ms total)
T2DE0 4406:994 JLINK_ClrBPEx(BPHandle = 0x0000000D)  returns 0x00 (0000ms, 2057ms total)
T2DE0 4406:994 JLINK_ReadReg(R0)  returns 0x00000000 (0000ms, 2057ms total)
T2DE0 4406:994 JLINK_WriteMem(0x20000164, 0x029C Bytes, ...) - Data: 01 29 08 BF 4F F0 FF 30 BD E8 F0 81 27 61 D4 E9 ... -- CPU_WriteMem(668 bytes @ 0x20000164)  returns 0x29C (0006ms, 2063ms total)
T2DE0 4407:000 JLINK_WriteMem(0x20000400, 0x0164 Bytes, ...) - Data: 20 46 00 21 00 F0 62 F8 00 28 C1 D0 B3 E7 21 69 ... -- CPU_WriteMem(356 bytes @ 0x20000400)  returns 0x164 (0004ms, 2067ms total)
T2DE0 4407:004 JLINK_WriteReg(R0, 0x08002400)  returns 0x00 (0000ms, 2067ms total)
T2DE0 4407:004 JLINK_WriteReg(R1, 0x00000400)  returns 0x00 (0000ms, 2067ms total)
T2DE0 4407:004 JLINK_WriteReg(R2, 0x20000164)  returns 0x00 (0000ms, 2067ms total)
T2DE0 4407:004 JLINK_WriteReg(R3, 0x00000000)  returns 0x00 (0000ms, 2067ms total)
T2DE0 4407:004 JLINK_WriteReg(R4, 0x00000000)  returns 0x00 (0000ms, 2067ms total)
T2DE0 4407:004 JLINK_WriteReg(R5, 0x00000000)  returns 0x00 (0000ms, 2067ms total)
T2DE0 4407:004 JLINK_WriteReg(R6, 0x00000000)  returns 0x00 (0000ms, 2067ms total)
T2DE0 4407:004 JLINK_WriteReg(R7, 0x00000000)  returns 0x00 (0000ms, 2067ms total)
T2DE0 4407:004 JLINK_WriteReg(R8, 0x00000000)  returns 0x00 (0000ms, 2067ms total)
T2DE0 4407:004 JLINK_WriteReg(R9, 0x20000160)  returns 0x00 (0000ms, 2067ms total)
T2DE0 4407:004 JLINK_WriteReg(R10, 0x00000000)  returns 0x00 (0000ms, 2067ms total)
T2DE0 4407:004 JLINK_WriteReg(R11, 0x00000000)  returns 0x00 (0000ms, 2067ms total)
T2DE0 4407:004 JLINK_WriteReg(R12, 0x00000000)  returns 0x00 (0000ms, 2067ms total)
T2DE0 4407:004 JLINK_WriteReg(R13 (SP), 0x20001000)  returns 0x00 (0000ms, 2067ms total)
T2DE0 4407:004 JLINK_WriteReg(R14, 0x20000001)  returns 0x00 (0000ms, 2067ms total)
T2DE0 4407:004 JLINK_WriteReg(R15 (PC), 0x200000F4)  returns 0x00 (0000ms, 2067ms total)
T2DE0 4407:004 JLINK_WriteReg(XPSR, 0x01000000)  returns 0x00 (0000ms, 2067ms total)
T2DE0 4407:004 JLINK_WriteReg(MSP, 0x20001000)  returns 0x00 (0000ms, 2067ms total)
T2DE0 4407:004 JLINK_WriteReg(PSP, 0x20001000)  returns 0x00 (0000ms, 2067ms total)
T2DE0 4407:004 JLINK_WriteReg(CFBP, 0x00000000)  returns 0x00 (0000ms, 2067ms total)
T2DE0 4407:004 JLINK_SetBPEx(Addr = 0x20000000, Type = 0xFFFFFFF2)  returns 0x0000000E (0000ms, 2067ms total)
T2DE0 4407:004 JLINK_Go() -- CPU_ReadMem(4 bytes @ 0xE0001000) (0005ms, 2072ms total)
T2DE0 4407:009 JLINK_IsHalted()  returns FALSE (0001ms, 2073ms total)
T2DE0 4407:015 JLINK_IsHalted()  returns FALSE (0001ms, 2073ms total)
T2DE0 4407:018 JLINK_IsHalted()  returns FALSE (0001ms, 2073ms total)
T2DE0 4407:021 JLINK_IsHalted()  returns FALSE (0001ms, 2073ms total)
T2DE0 4407:026 JLINK_IsHalted()  returns FALSE (0001ms, 2073ms total)
T2DE0 4407:029 JLINK_IsHalted()  returns FALSE (0001ms, 2073ms total)
T2DE0 4407:033 JLINK_IsHalted()  returns FALSE (0001ms, 2073ms total)
T2DE0 4407:036 JLINK_IsHalted()  returns FALSE (0001ms, 2073ms total)
T2DE0 4407:040 JLINK_IsHalted() -- CPU_ReadMem(2 bytes @ 0x20000000)  returns TRUE (0006ms, 2078ms total)
T2DE0 4407:046 JLINK_ReadReg(R15 (PC))  returns 0x20000000 (0000ms, 2072ms total)
T2DE0 4407:046 JLINK_ClrBPEx(BPHandle = 0x0000000E)  returns 0x00 (0000ms, 2072ms total)
T2DE0 4407:046 JLINK_ReadReg(R0)  returns 0x00000000 (0000ms, 2072ms total)
T2DE0 4407:046 JLINK_WriteMem(0x20000164, 0x029C Bytes, ...) - Data: 20 46 FF F7 90 FD 80 46 01 30 03 28 07 D2 09 49 ... -- CPU_WriteMem(668 bytes @ 0x20000164)  returns 0x29C (0005ms, 2077ms total)
T2DE0 4407:051 JLINK_WriteMem(0x20000400, 0x0164 Bytes, ...) - Data: 01 60 0A 20 70 60 70 68 00 28 FC D1 28 78 80 07 ... -- CPU_WriteMem(356 bytes @ 0x20000400)  returns 0x164 (0004ms, 2081ms total)
T2DE0 4407:055 JLINK_WriteReg(R0, 0x08002800)  returns 0x00 (0000ms, 2081ms total)
